write to 0x4A ack
write to 0x4A ack data: 0x05 0x00 0x01 0x00 0x01 
read to 0x4A ack data: 0x14 0x01 0x00 0x00
read to 0x4A ack data: 0x14 0x81 0x00 0x01 0x00 0x01 0x04 0x00 0x00 0x00 0x00 0x80 0x06 0x31 0x2E 0x30 0x2E 0x30 0x00 0x02 0x02 0x00 0x01 0x03 0x02 0xFF 0x7F 0x04 0x02 0x00 0x01 0x05
read to 0x4A ack data: 0xF8 0x80 0x00 0x02 0x02 0xFF 0x7F 0x08 0x05 0x53 0x48 0x54 0x50 0x00 0x06 0x01 0x00 0x09 0x08 0x63 0x6F 0x6E 0x74 0x72 0x6F 0x6C 0x00 0x01 0x04 0x01 0x00 0x00
read to 0x4A ack data: 0xDC 0x80 0x00 0x03 0x00 0x08 0x0B 0x65 0x78 0x65 0x63 0x75 0x74 0x61 0x62 0x6C 0x65 0x00 0x06 0x01 0x01 0x09 0x07 0x64 0x65 0x76 0x69 0x63 0x65 0x00 0x01 0x04
read to 0x4A ack data: 0xC0 0x80 0x00 0x04 0x02 0x00 0x00 0x00 0x08 0x0A 0x73 0x65 0x6E 0x73 0x6F 0x72 0x68 0x75 0x62 0x00 0x06 0x01 0x02 0x09 0x08 0x63 0x6F 0x6E 0x74 0x72 0x6F 0x6C
read to 0x4A ack data: 0xA4 0x80 0x00 0x05 0x00 0x06 0x01 0x03 0x09 0x0C 0x69 0x6E 0x70 0x75 0x74 0x4E 0x6F 0x72 0x6D 0x61 0x6C 0x00 0x07 0x01 0x04 0x09 0x0A 0x69 0x6E 0x70 0x75 0x74
read to 0x4A ack data: 0x88 0x80 0x00 0x06 0x57 0x61 0x6B 0x65 0x00 0x06 0x01 0x05 0x09 0x0C 0x69 0x6E 0x70 0x75 0x74 0x47 0x79 0x72 0x6F 0x52 0x76 0x00 0x80 0x06 0x31 0x2E 0x31 0x2E
read to 0x4A ack data: 0x6C 0x80 0x00 0x07 0x30 0x00 0x81 0x64 0xF8 0x10 0xF5 0x04 0xF3 0x10 0xF1 0x10 0xFB 0x05 0xFA 0x05 0xFC 0x11 0xEF 0x02 0x01 0x0A 0x02 0x0A 0x03 0x0A 0x04 0x0A
read to 0x4A ack data: 0x50 0x80 0x00 0x08 0x05 0x0E 0x06 0x0A 0x07 0x10 0x08 0x0C 0x09 0x0E 0x0A 0x08 0x0B 0x08 0x0C 0x06 0x0D 0x06 0x0E 0x06 0x0F 0x10 0x10 0x05 0x11 0x0C 0x12 0x06
read to 0x4A ack data: 0x34 0x80 0x00 0x09 0x13 0x06 0x14 0x10 0x15 0x10 0x16 0x10 0x17 0x00 0x18 0x08 0x19 0x06 0x1A 0x00 0x1B 0x00 0x1C 0x06 0x1D 0x00 0x1E 0x10 0x1F 0x00 0x20 0x00
read to 0x4A ack data: 0x18 0x80 0x00 0x0A 0x21 0x00 0x22 0x00 0x23 0x00 0x24 0x00 0x25 0x00 0x26 0x00 0x27 0x00 0x28 0x0E 0x29 0x0C 0x2A 0x0E
read to 0x4A ack data: 0x05 0x00 0x01 0x00
read to 0x4A ack data: 0x05 0x80 0x01 0x01 0x01
write to 0x4A ack data: 0x06 0x00 0x02 0x00 0xF9 0x00 
read to 0x4A ack data: 0x14 0x00 0x02 0x00
read to 0x4A ack data: 0x14 0x80 0x02 0x01 0xF1 0x00 0x84 0x00 0x00 0x00 0x01 0x00 0x00 0x00 0x00 0x00 0x00 0x00 0x00 0x00
read to 0x4A ack data: 0x44 0x00 0x02 0x02
read to 0x4A ack data: 0x44 0x80 0x02 0x03 0xF8 0x02 0x03 0x02 0xB4 0xA6 0x98 0x00 0x06 0x00 0x00 0x00 0x0D 0x00 0x00 0x00 0xF8 0x00 0x01 0x02 0x96 0xA4 0x98 0x00 0xE6 0x00 0x00 0x00
read to 0x4A ack data: 0x28 0x80 0x02 0x04 0x04 0x00 0x00 0x00 0xF8 0x00 0x04 0x04 0x36 0xA3 0x98 0x00 0xE5 0x01 0x00 0x00 0x03 0x00 0x00 0x00 0xF8 0x00 0x04 0x02 0xE3 0xA2 0x98 0x00
read to 0x4A ack data: 0x0C 0x80 0x02 0x05 0x24 0x02 0x00 0x00 0x0A 0x00 0x00 0x00
write to 0x4A ack data: 0x15 0x00 0x02 0x01 0xFD 0x28 0x00 0x00 0x00 0x88 0x13 0x00 0x00 0x00 0x00 0x00 0x00 0x00 0x00 0x00 0x00 
write to 0x4A ack data: 0x15 0x00 0x02 0x02 0xFD 0x28 0x00 0x00 0x00 0x88 0x13 0x00 0x00 0x00 0x00 0x00 0x00 0x00 0x00 0x00 0x00 
read to 0x4A ack data: 0x15 0x00 0x02 0x06
read to 0x4A ack data: 0x15 0x80 0x02 0x07 0xFC 0x28 0x00 0x00 0x00 0x88 0x13 0x00 0x00 0x00 0x00 0x00 0x00 0x00 0x00 0x00 0x00
read to 0x4A ack data: 0x79 0x00 0x03 0x00
read to 0x4A ack data: 0x79 0x80 0x03 0x01 0xFB 0x82 0x01 0x00 0x00 0x28 0x00 0x00 0x00 0x64 0xF7 0x99 0x02 0xED 0x3C 0x68 0x11 0x44 0x32 0x28 0x01 0x00 0x33 0x64 0xF7 0x99 0x02 0xED
read to 0x4A ack data: 0x5D 0x80 0x03 0x02 0x3C 0x68 0x11 0x44 0x32 0x28 0x02 0x00 0x60 0x64 0xF7 0x99 0x02 0xED 0x3C 0x68 0x11 0x44 0x32 0x28 0x03 0x00 0x95 0x64 0xF7 0x99 0x02 0xED
read to 0x4A ack data: 0x41 0x80 0x03 0x03 0x3C 0x69 0x11 0x44 0x32 0x28 0x04 0x00 0xC6 0x65 0xF7 0x99 0x02 0xED 0x3C 0x69 0x11 0x44 0x32 0x28 0x05 0x00 0xF8 0x65 0xF7 0x9A 0x02 0xED
read to 0x4A ack data: 0x25 0x80 0x03 0x04 0x3C 0x69 0x11 0x44 0x32 0x28 0x06 0x04 0x26 0x65 0xF7 0x9A 0x02 0xED 0x3C 0x6A 0x11 0x44 0x32 0x28 0x07 0x04 0x59 0x66 0xF7 0x9A 0x02 0xED
read to 0x4A ack data: 0x09 0x80 0x03 0x05 0x3C 0x6A 0x11 0x44 0x32
read to 0x4A ack data: 0x33 0x00 0x03 0x06
read to 0x4A ack data: 0x33 0x80 0x03 0x07 0xFB 0x9F 0x00 0x00 0x00 0x28 0x08 0x00 0x00 0x66 0xF7 0x9A 0x02 0xED 0x3C 0x6A 0x11 0x44 0x32 0x28 0x09 0x00 0x31 0x67 0xF7 0x9A 0x02 0xED
read to 0x4A ack data: 0x17 0x80 0x03 0x08 0x3C 0x6A 0x11 0x44 0x32 0x28 0x0A 0x00 0x64 0x67 0xF7 0x9A 0x02 0xED 0x3C 0x6A 0x11 0x44 0x32
read to 0x4A ack data: 0x33 0x00 0x03 0x09
read to 0x4A ack data: 0x33 0x80 0x03 0x0A 0xFB 0x78 0x00 0x00 0x00 0x28 0x0B 0x00 0x00 0x67 0xF7 0x9A 0x02 0xED 0x3C 0x6A 0x11 0x44 0x32 0x28 0x0C 0x00 0x36 0x67 0xF7 0x99 0x02 0xED
read to 0x4A ack data: 0x17 0x80 0x03 0x0B 0x3C 0x6A 0x11 0x44 0x32 0x28 0x0D 0x00 0x64 0x67 0xF7 0x99 0x02 0xED 0x3C 0x6A 0x11 0x44 0x32
read to 0x4A ack data: 0x25 0x00 0x03 0x0C
read to 0x4A ack data: 0x25 0x80 0x03 0x0D 0xFB 0x4C 0x00 0x00 0x00 0x28 0x0E 0x00 0x00 0x67 0xF7 0x99 0x02 0xED 0x3C 0x6B 0x11 0x44 0x32 0x28 0x0F 0x00 0x35 0x67 0xF7 0x99 0x02 0xED
read to 0x4A ack data: 0x09 0x80 0x03 0x0E 0x3C 0x6B 0x11 0x44 0x32
read to 0x4A ack data: 0x17 0x00 0x03 0x0F
read to 0x4A ack data: 0x17 0x80 0x03 0x10 0xFB 0x40 0x00 0x00 0x00 0x28 0x10 0x00 0x00 0x67 0xF7 0x9A 0x02 0xED 0x3C 0x6A 0x11 0x44 0x32
read to 0x4A ack data: 0x25 0x00 0x03 0x11
read to 0x4A ack data: 0x25 0x80 0x03 0x12 0xFB 0x55 0x00 0x00 0x00 0x28 0x11 0x00 0x00 0x67 0xF7 0x9A 0x02 0xED 0x3C 0x6A 0x11 0x44 0x32 0x28 0x12 0x00 0x34 0x67 0xF7 0x9A 0x02 0xED
read to 0x4A ack data: 0x09 0x80 0x03 0x13 0x3C 0x6A 0x11 0x44 0x32
read to 0x4A ack data: 0x17 0x00 0x03 0x14
read to 0x4A ack data: 0x17 0x80 0x03 0x15 0xFB 0x41 0x00 0x00 0x00 0x28 0x13 0x00 0x00 0x67 0xF7 0x9A 0x02 0xED 0x3C 0x6A 0x11 0x44 0x32
read to 0x4A ack data: 0x25 0x00 0x03 0x16
read to 0x4A ack data: 0x25 0x80 0x03 0x17 0xFB 0x55 0x00 0x00 0x00 0x28 0x14 0x00 0x00 0x66 0xF7 0x9A 0x02 0xED 0x3C 0x69 0x11 0x44 0x32 0x28 0x15 0x00 0x36 0x66 0xF7 0x9A 0x02 0xED
read to 0x4A ack data: 0x09 0x80 0x03 0x18 0x3C 0x69 0x11 0x44 0x32
read to 0x4A ack data: 0x25 0x00 0x03 0x19
read to 0x4A ack data: 0x25 0x80 0x03 0x1A 0xFB 0x4B 0x00 0x00 0x00 0x28 0x16 0x00 0x00 0x66 0xF7 0x9A 0x02 0xED 0x3C 0x69 0x11 0x44 0x32 0x28 0x17 0x00 0x33 0x66 0xF7 0x9A 0x02 0xED
read to 0x4A ack data: 0x09 0x80 0x03 0x1B 0x3C 0x69 0x11 0x44 0x32
read to 0x4A ack data: 0x17 0x00 0x03 0x1C
read to 0x4A ack data: 0x17 0x80 0x03 0x1D 0xFB 0x3E 0x00 0x00 0x00 0x28 0x18 0x00 0x00 0x65 0xF7 0x9A 0x02 0xED 0x3C 0x68 0x11 0x44 0x32
read to 0x4A ack data: 0x25 0x00 0x03 0x1E
read to 0x4A ack data: 0x25 0x80 0x03 0x1F 0xFB 0x4D 0x00 0x00 0x00 0x28 0x19 0x00 0x00 0x65 0xF7 0x9A 0x02 0xED 0x3C 0x68 0x11 0x44 0x32 0x28 0x1A 0x00 0x2C 0x65 0xF7 0x9A 0x02 0xEE
read to 0x4A ack data: 0x09 0x80 0x03 0x20 0x3C 0x68 0x11 0x44 0x32
read to 0x4A ack data: 0x17 0x00 0x03 0x21
read to 0x4A ack data: 0x17 0x80 0x03 0x22 0xFB 0x3E 0x00 0x00 0x00 0x28 0x1B 0x00 0x00 0x65 0xF7 0x9A 0x02 0xED 0x3C 0x68 0x11 0x44 0x32
read to 0x4A ack data: 0x25 0x00 0x03 0x23
read to 0x4A ack data: 0x25 0x80 0x03 0x24 0xFB 0x55 0x00 0x00 0x00 0x28 0x1C 0x00 0x00 0x65 0xF7 0x9A 0x02 0xED 0x3C 0x68 0x11 0x44 0x32 0x28 0x1D 0x00 0x36 0x65 0xF7 0x9A 0x02 0xED
read to 0x4A ack data: 0x09 0x80 0x03 0x25 0x3C 0x68 0x11 0x44 0x32
read to 0x4A ack data: 0x17 0x00 0x03 0x26
read to 0x4A ack data: 0x17 0x80 0x03 0x27 0xFB 0x47 0x00 0x00 0x00 0x28 0x1E 0x00 0x00 0x65 0xF7 0x9A 0x02 0xED 0x3C 0x68 0x11 0x44 0x32
read to 0x4A ack data: 0x25 0x00 0x03 0x28
read to 0x4A ack data: 0x25 0x80 0x03 0x29 0xFB 0x56 0x00 0x00 0x00 0x28 0x1F 0x00 0x00 0x66 0xF7 0x9A 0x02 0xED 0x3C 0x69 0x11 0x44 0x32 0x28 0x20 0x00 0x32 0x66 0xF7 0x9A 0x02 0xED
read to 0x4A ack data: 0x09 0x80 0x03 
