write to 0x4A ack
write to 0x4A ack data: 0x05 0x00 0x01 0x00 0x01 
read to 0x4A ack data: 0x14 0x01 0x00 0x00
read to 0x4A ack data: 0x14 0x81 0x00 0x01 0x00 0x01 0x04 0x00 0x00 0x00 0x00 0x80 0x06 0x31 0x2E 0x30 0x2E 0x30 0x00 0x02 0x02 0x00 0x01 0x03 0x02 0xFF 0x7F 0x04 0x02 0x00 0x01 0x05
read to 0x4A ack data: 0xF8 0x80 0x00 0x02 0x02 0xFF 0x7F 0x08 0x05 0x53 0x48 0x54 0x50 0x00 0x06 0x01 0x00 0x09 0x08 0x63 0x6F 0x6E 0x74 0x72 0x6F 0x6C 0x00 0x01 0x04 0x01 0x00 0x00
read to 0x4A ack data: 0xDC 0x80 0x00 0x03 0x00 0x08 0x0B 0x65 0x78 0x65 0x63 0x75 0x74 0x61 0x62 0x6C 0x65 0x00 0x06 0x01 0x01 0x09 0x07 0x64 0x65 0x76 0x69 0x63 0x65 0x00 0x01 0x04
read to 0x4A ack data: 0xC0 0x80 0x00 0x04 0x02 0x00 0x00 0x00 0x08 0x0A 0x73 0x65 0x6E 0x73 0x6F 0x72 0x68 0x75 0x62 0x00 0x06 0x01 0x02 0x09 0x08 0x63 0x6F 0x6E 0x74 0x72 0x6F 0x6C
read to 0x4A ack data: 0xA4 0x80 0x00 0x05 0x00 0x06 0x01 0x03 0x09 0x0C 0x69 0x6E 0x70 0x75 0x74 0x4E 0x6F 0x72 0x6D 0x61 0x6C 0x00 0x07 0x01 0x04 0x09 0x0A 0x69 0x6E 0x70 0x75 0x74
read to 0x4A ack data: 0x88 0x80 0x00 0x06 0x57 0x61 0x6B 0x65 0x00 0x06 0x01 0x05 0x09 0x0C 0x69 0x6E 0x70 0x75 0x74 0x47 0x79 0x72 0x6F 0x52 0x76 0x00 0x80 0x06 0x31 0x2E 0x31 0x2E
read to 0x4A ack data: 0x6C 0x80 0x00 0x07 0x30 0x00 0x81 0x64 0xF8 0x10 0xF5 0x04 0xF3 0x10 0xF1 0x10 0xFB 0x05 0xFA 0x05 0xFC 0x11 0xEF 0x02 0x01 0x0A 0x02 0x0A 0x03 0x0A 0x04 0x0A
read to 0x4A ack data: 0x50 0x80 0x00 0x08 0x05 0x0E 0x06 0x0A 0x07 0x10 0x08 0x0C 0x09 0x0E 0x0A 0x08 0x0B 0x08 0x0C 0x06 0x0D 0x06 0x0E 0x06 0x0F 0x10 0x10 0x05 0x11 0x0C 0x12 0x06
read to 0x4A ack data: 0x34 0x80 0x00 0x09 0x13 0x06 0x14 0x10 0x15 0x10 0x16 0x10 0x17 0x00 0x18 0x08 0x19 0x06 0x1A 0x00 0x1B 0x00 0x1C 0x06 0x1D 0x00 0x1E 0x10 0x1F 0x00 0x20 0x00
read to 0x4A ack data: 0x18 0x80 0x00 0x0A 0x21 0x00 0x22 0x00 0x23 0x00 0x24 0x00 0x25 0x00 0x26 0x00 0x27 0x00 0x28 0x0E 0x29 0x0C 0x2A 0x0E
read to 0x4A ack data: 0x05 0x00 0x01 0x00
read to 0x4A ack data: 0x05 0x80 0x01 0x01 0x01
write to 0x4A ack data: 0x06 0x00 0x02 0x00 0xF9 0x00 
read to 0x4A ack data: 0x14 0x00 0x02 0x00
read to 0x4A ack data: 0x14 0x80 0x02 0x01 0xF1 0x00 0x84 0x00 0x00 0x00 0x01 0x00 0x00 0x00 0x00 0x00 0x00 0x00 0x00 0x00
read to 0x4A ack data: 0x44 0x00 0x02 0x02
read to 0x4A ack data: 0x44 0x80 0x02 0x03 0xF8 0x02 0x03 0x02 0xB4 0xA6 0x98 0x00 0x06 0x00 0x00 0x00 0x0D 0x00 0x00 0x00 0xF8 0x00 0x01 0x02 0x96 0xA4 0x98 0x00 0xE6 0x00 0x00 0x00
read to 0x4A ack data: 0x28 0x80 0x02 0x04 0x04 0x00 0x00 0x00 0xF8 0x00 0x04 0x04 0x36 0xA3 0x98 0x00 0xE5 0x01 0x00 0x00 0x03 0x00 0x00 0x00 0xF8 0x00 0x04 0x02 0xE3 0xA2 0x98 0x00
read to 0x4A ack data: 0x0C 0x80 0x02 0x05 0x24 0x02 0x00 0x00 0x0A 0x00 0x00 0x00
write to 0x4A ack data: 0x15 0x00 0x02 0x01 0xFD 0x01 0x00 0x00 0x00 0x10 0x27 0x00 0x00 0x00 0x00 0x00 0x00 0x00 0x00 0x00 0x00 
write to 0x4A ack data: 0x15 0x00 0x02 0x02 0xFD 0x02 0x00 0x00 0x00 0x10 0x27 0x00 0x00 0x00 0x00 0x00 0x00 0x00 0x00 0x00 0x00 
write to 0x4A ack data: 0x15 0x00 0x02 0x03 0xFD 0x03 0x00 0x00 0x00 0x10 0x27 0x00 0x00 0x00 0x00 0x00 0x00 0x00 0x00 0x00 0x00 
write to 0x4A ack data: 0x15 0x00 0x02 0x04 0xFD 0x04 0x00 0x00 0x00 0x10 0x27 0x00 0x00 0x00 0x00 0x00 0x00 0x00 0x00 0x00 0x00 
write to 0x4A ack data: 0x15 0x00 0x02 0x05 0xFD 0x06 0x00 0x00 0x00 0x10 0x27 0x00 0x00 0x00 0x00 0x00 0x00 0x00 0x00 0x00 0x00 
write to 0x4A ack data: 0x15 0x00 0x02 0x06 0xFD 0x05 0x00 0x00 0x00 0x10 0x27 0x00 0x00 0x00 0x00 0x00 0x00 0x00 0x00 0x00 0x00 
write to 0x4A ack data: 0x15 0x00 0x02 0x07 0xFD 0x09 0x00 0x00 0x00 0x10 0x27 0x00 0x00 0x00 0x00 0x00 0x00 0x00 0x00 0x00 0x00 
write to 0x4A ack data: 0x15 0x00 0x02 0x08 0xFD 0x08 0x00 0x00 0x00 0x10 0x27 0x00 0x00 0x00 0x00 0x00 0x00 0x00 0x00 0x00 0x00 
write to 0x4A ack data: 0x15 0x00 0x02 0x09 0xFD 0x11 0x00 0x00 0x00 0x10 0x27 0x00 0x00 0x00 0x00 0x00 0x00 0x00 0x00 0x00 0x00 
write to 0x4A ack data: 0x15 0x00 0x02 0x0A 0xFD 0x13 0x00 0x00 0x00 0x10 0x27 0x00 0x00 0x00 0x00 0x00 0x00 0x00 0x00 0x00 0x00 
write to 0x4A ack data: 0x15 0x00 0x02 0x0B 0xFD 0x14 0x00 0x00 0x00 0x10 0x27 0x00 0x00 0x00 0x00 0x00 0x00 0x00 0x00 0x00 0x00 
write to 0x4A ack data: 0x15 0x00 0x02 0x0C 0xFD 0x15 0x00 0x00 0x00 0x10 0x27 0x00 0x00 0x00 0x00 0x00 0x00 0x00 0x00 0x00 0x00 
write to 0x4A ack data: 0x15 0x00 0x02 0x0D 0xFD 0x16 0x00 0x00 0x00 0x10 0x27 0x00 0x00 0x00 0x00 0x00 0x00 0x00 0x00 0x00 0x00 
write to 0x4A ack data: 0x15 0x00 0x02 0x0E 0xFD 0x19 0x00 0x00 0x00 0x10 0x27 0x00 0x00 0x00 0x00 0x00 0x00 0x00 0x00 0x00 0x00 
write to 0x4A ack data: 0x15 0x00 0x02 0x0F 0xFD 0x1E 0x00 0x00 0x00 0x10 0x27 0x00 0x00 0x00 0x00 0x00 0x00 0x00 0x00 0x00 0x00 
write to 0x4A ack data: 0x15 0x00 0x02 0x10 0xFD 0x01 0x00 0x00 0x00 0x10 0x27 0x00 0x00 0x00 0x00 0x00 0x00 0x00 0x00 0x00 0x00 
write to 0x4A ack data: 0x15 0x00 0x02 0x11 0xFD 0x02 0x00 0x00 0x00 0x10 0x27 0x00 0x00 0x00 0x00 0x00 0x00 0x00 0x00 0x00 0x00 
write to 0x4A ack data: 0x15 0x00 0x02 0x12 0xFD 0x03 0x00 0x00 0x00 0x10 0x27 0x00 0x00 0x00 0x00 0x00 0x00 0x00 0x00 0x00 0x00 
write to 0x4A ack data: 0x15 0x00 0x02 0x13 0xFD 0x04 0x00 0x00 0x00 0x10 0x27 0x00 0x00 0x00 0x00 0x00 0x00 0x00 0x00 0x00 0x00 
write to 0x4A ack data: 0x15 0x00 0x02 0x14 0xFD 0x06 0x00 0x00 0x00 0x10 0x27 0x00 0x00 0x00 0x00 0x00 0x00 0x00 0x00 0x00 0x00 
write to 0x4A ack data: 0x15 0x00 0x02 0x15 0xFD 0x05 0x00 0x00 0x00 0x10 0x27 0x00 0x00 0x00 0x00 0x00 0x00 0x00 0x00 0x00 0x00 
write to 0x4A ack data: 0x15 0x00 0x02 0x16 0xFD 0x09 0x00 0x00 0x00 0x10 0x27 0x00 0x00 0x00 0x00 0x00 0x00 0x00 0x00 0x00 0x00 
write to 0x4A ack data: 0x15 0x00 0x02 0x17 0xFD 0x08 0x00 0x00 0x00 0x10 0x27 0x00 0x00 0x00 0x00 0x00 0x00 0x00 0x00 0x00 0x00 
write to 0x4A ack data: 0x15 0x00 0x02 0x18 0xFD 0x11 0x00 0x00 0x00 0x10 0x27 0x00 0x00 0x00 0x00 0x00 0x00 0x00 0x00 0x00 0x00 
write to 0x4A ack data: 0x15 0x00 0x02 0x19 0xFD 0x13 0x00 0x00 0x00 0x10 0x27 0x00 0x00 0x00 0x00 0x00 0x00 0x00 0x00 0x00 0x00 
write to 0x4A ack data: 0x15 0x00 0x02 0x1A 0xFD 0x14 0x00 0x00 0x00 0x10 0x27 0x00 0x00 0x00 0x00 0x00 0x00 0x00 0x00 0x00 0x00 
write to 0x4A ack data: 0x15 0x00 0x02 0x1B 0xFD 0x15 0x00 0x00 0x00 0x10 0x27 0x00 0x00 0x00 0x00 0x00 0x00 0x00 0x00 0x00 0x00 
write to 0x4A ack data: 0x15 0x00 0x02 0x1C 0xFD 0x16 0x00 0x00 0x00 0x10 0x27 0x00 0x00 0x00 0x00 0x00 0x00 0x00 0x00 0x00 0x00 
write to 0x4A ack data: 0x15 0x00 0x02 0x1D 0xFD 0x19 0x00 0x00 0x00 0x10 0x27 0x00 0x00 0x00 0x00 0x00 0x00 0x00 0x00 0x00 0x00 
write to 0x4A ack data: 0x15 0x00 0x02 0x1E 0xFD 0x1E 0x00 0x00 0x00 0x10 0x27 0x00 0x00 0x00 0x00 0x00 0x00 0x00 0x00 0x00 0x00 
read to 0x4A ack data: 0x15 0x00 0x02 0x06
read to 0x4A ack data: 0x15 0x80 0x02 0x07 0xFC 0x16 0x00 0x00 0x00 0x10 0x27 0x00 0x00 0x00 0x00 0x00 0x00 0x00 0x00 0x00 0x00
read to 0x4A ack data: 0xC7 0x00 0x03 0x00
read to 0x4A ack data: 0xC7 0x80 0x03 0x01 0xFB 0x0B 0x06 0x00 0x00 0x01 0x12 0x16 0xA1 0xAA 0xFD 0x00 0x00 0x28 0x09 0x19 0x12 0x17 0xA1 0x00 0x00 0x11 0x12 0x17 0xA1 0x10 0x06 0x00
read to 0x4A ack data: 0xAB 0x80 0x03 0x02 0x00 0x00 0x00 0x06 0x00 0x15 0x09 0x14 0xAA 0x0C 0x00 0xF9 0xFF 0x02 0x00 0x0E 0x00 0x7F 0x3B 0x06 0x00 0x16 0x0E 0x14 0xAE 0x6D 0xFE 0x33
read to 0x4A ack data: 0x8F 0x80 0x03 0x03 0x03 0x06 0x00 0x00 0x00 0xED 0x3C 0x06 0x00 0x02 0x09 0x14 0xAA 0x03 0x00 0x07 0x00 0x01 0x00 0x05 0x09 0x14 0xAA 0x3E 0xF8 0xAE 0x01 0x12
read to 0x4A ack data: 0x73 0x80 0x03 0x04 0x3E 0x6D 0x0D 0x44 0x32 0x08 0x09 0x17 0xAA 0x01 0x00 0xF0 0x07 0x00 0x00 0x81 0x3F 0x06 0x09 0x17 0xAA 0xAA 0xFD 0x00 0x00 0x30 0x09 0x04
read to 0x4A ack data: 0x57 0x80 0x03 0x05 0x09 0x17 0xAA 0x00 0x00 0x00 0x00 0xF8 0xFF 0x13 0x09 0x17 0xAA 0x00 0x00 0x03 0x0D 0x14 0xAE 0x93 0x01 0xCD 0xFC 0x06 0x00 0x14 0x13 0x14
read to 0x4A ack data: 0x3B 0x80 0x03 0x06 0xF0 0x10 0x00 0xE0 0x03 0x00 0x0F 0x00 0x00 0xAD 0x56 0x06 0x00 0x09 0x0D 0x17 0xAE 0x41 0xF8 0xC4 0x01 0xE3 0x3D 0x3D 0x0E 0x44 0x32 0x01
read to 0x4A ack data: 0x1F 0x80 0x03 0x07 0x13 0x16 0xF0 0xA0 0xFD 0x0A 0x00 0x33 0x09 0x19 0x13 0x17 0xF0 0x00 0x00 0x11 0x13 0x17 0xF0 0xAC 0xAF 0x00 0x00 0x00 0x00 0x06 0x00
read to 0x4A ack data: 0x15 0x00 0x02 0x08
read to 0x4A ack data: 0x15 0x80 0x02 0x09 0xFC 0x01 0x00 0x00 0x00 0x40 0x1F 0x00 0x00 0x00 0x00 0x00 0x00 0x00 0x00 0x00 0x00
read to 0x4A ack data: 0xC7 0x00 0x03 0x08
read to 0x4A ack data: 0xC7 0x80 0x03 0x09 0xFB 0xFA 0x01 0x00 0x00 0x01 0x18 0x06 0x6E 0xAA 0xFD 0x00 0x00 0x33 0x09 0x19 0x18 0x07 0x6E 0x00 0x00 0x11 0x18 0x07 0x6E 0x59 0x95 0x00
read to 0x4A ack data: 0xAB 0x80 0x03 0x0A 0x00 0x00 0x00 0x06 0x00 0x15 0x0E 0x04 0x90 0xF7 0xFF 0xFF 0xFF 0xFF 0xFF 0x0E 0x00 0x8C 0x00 0x07 0x00 0x16 0x13 0x04 0x90 0x55 0xFE 0x2D
read to 0x4A ack data: 0x8F 0x80 0x03 0x0B 0x03 0xFA 0xFF 0x00 0x00 0x8C 0x00 0x07 0x00 0x02 0x0E 0x04 0x90 0x00 0x00 0xFC 0xFF 0xFF 0xFF 0x05 0x0E 0x04 0x90 0x3F 0xF8 0xAF 0x01 0x12
read to 0x4A ack data: 0x73 0x80 0x03 0x0C 0x3E 0x6D 0x0D 0x44 0x32 0x08 0x0E 0x07 0x90 0x02 0x00 0xF0 0x07 0x00 0x00 0x82 0x3F 0x14 0x19 0x04 0xB6 0x00 0x00 0xD0 0x03 0x00 0x0F 0x00
read to 0x4A ack data: 0x57 0x80 0x03 0x0D 0x00 0x92 0x0F 0x07 0x00 0x06 0x0E 0x07 0x90 0xAA 0xFD 0x00 0x00 0x30 0x09 0x04 0x0E 0x07 0x90 0x00 0x00 0x00 0x00 0x02 0x00 0x03 0x12 0x04
read to 0x4A ack data: 0x3B 0x80 0x03 0x0E 0x90 0x99 0x01 0xD9 0xFC 0x00 0x00 0x09 0x12 0x07 0x90 0x40 0xF8 0xC6 0x01 0xE4 0x3D 0x39 0x0E 0x44 0x32 0x13 0x0E 0x07 0x90 0x00 0x00 0x01
read to 0x4A ack data: 0x1F 0x80 0x03 0x0F 0x19 0x06 0xB6 0xAA 0xFD 0x00 0x00 0x33 0x09 0x19 0x19 0x07 0xB6 0x00 0x00 0x11 0x19 0x07 0xB6 0xE3 0xD4 0x00 0x00 0x00 0x00 0x07 0x00
read to 0x4A ack data: 0x15 0x00 0x02 0x0A
read to 0x4A ack data: 0x15 0x80 0x02 0x0B 0xFC 0x02 0x00 0x00 0x00 0x10 0x27 0x00 0x00 0x00 0x00 0x00 0x00 0x00 0x00 0x00 0x00
read to 0x4A ack data: 0xCB 0x00 0x03 0x10
read to 0x4A ack data: 0xCB 0x80 0x03 0x11 0xFB 0x0B 0x02 0x00 0x00 0x16 0x18 0x04 0x91 0x67 0xFE 0x1C 0x03 0x00 0x00 0x00 0x00 0x19 0xC3 0x07 0x00 0x14 0x1F 0x04 0x9F 0x00 0x00 0xC0
read to 0x4A ack data: 0xAF 0x80 0x03 0x12 0x03 0x00 0x0F 0x00 0x00 0xD2 0xC8 0x07 0x00 0x02 0x13 0x04 0x91 0x01 0x00 0x02 0x00 0xFF 0xFF 0x05 0x13 0x04 0x91 0x3E 0xF8 0xAF 0x01 0x12
read to 0x4A ack data: 0x93 0x80 0x03 0x13 0x3E 0x6D 0x0D 0x44 0x32 0x08 0x13 0x07 0x91 0x02 0x00 0xF1 0x07 0x00 0x00 0x81 0x3F 0x06 0x13 0x07 0x91 0xAA 0xFD 0x00 0x00 0x30 0x09 0x04
read to 0x4A ack data: 0x77 0x80 0x03 0x14 0x13 0x07 0x91 0x00 0x00 0x00 0x00 0x02 0x00 0x03 0x17 0x04 0x91 0x99 0x01 0xE4 0xFC 0x00 0x00 0x09 0x17 0x07 0x91 0x3F 0xF8 0xC7 0x01 0xE4
read to 0x4A ack data: 0x5B 0x80 0x03 0x15 0x3D 0x39 0x0E 0x44 0x32 0x13 0x13 0x07 0x91 0x00 0x00 0x01 0x1F 0x06 0x9F 0xB4 0xFD 0x00 0x00 0x32 0x09 0x19 0x1F 0x07 0x9F 0x00 0x00 0x11
read to 0x4A ack data: 0x3F 0x80 0x03 0x16 0x1F 0x07 0x9F 0xF5 0x06 0x00 0x00 0x00 0x00 0x07 0x00 0x14 0x20 0x04 0xF5 0x00 0x00 0xE0 0x03 0xF0 0x0E 0x00 0x00 0x51 0xEA 0x07 0x00 0x15
read to 0x4A ack data: 0x23 0x80 0x03 0x17 0x14 0x04 0xF5 0xFD 0xFF 0xFB 0xFF 0xFD 0xFF 0x0E 0x00 0x51 0xEA 0x07 0x00 0x16 0x19 0x04 0xF5 0x67 0xFE 0x27 0x03 0x0C 0x00 0x00 0x00 0x51
read to 0x4A ack data: 0x07 0x80 0x03 0x18 0xEA 0x07 0x00
read to 0x4A ack data: 0x15 0x00 0x02 0x0C
read to 0x4A ack data: 0x15 0x80 0x02 0x0D 0xFC 0x03 0x00 0x00 0x00 0x10 0x27 0x00 0x00 0x00 0x00 0x00 0x00 0x00 0x00 0x00 0x00
read to 0x4A ack data: 0xCB 0x00 0x03 0x19
read to 0x4A ack data: 0xCB 0x80 0x03 0x1A 0xFB 0x10 0x02 0x00 0x00 0x15 0x18 0x04 0x8E 0xFF 0xFF 0xFF 0xFF 0x00 0x00 0x0E 0x00 0xE3 0x85 0x08 0x00 0x16 0x1D 0x04 0x90 0x72 0xFE 0x22
read to 0x4A ack data: 0xAF 0x80 0x03 0x1B 0x03 0x13 0x00 0x00 0x00 0x9A 0x86 0x08 0x00 0x02 0x18 0x04 0x8E 0x00 0x00 0x00 0x00 0x00 0x00 0x05 0x18 0x04 0x8E 0x3E 0xF8 0xB0 0x01 0x12
read to 0x4A ack data: 0x93 0x80 0x03 0x1C 0x3E 0x6E 0x0D 0x44 0x32 0x08 0x18 0x07 0x8E 0x03 0x00 0xF0 0x07 0x00 0x00 0x81 0x3F 0x06 0x18 0x07 0x90 0xAA 0xFD 0x02 0x00 0x30 0x09 0x04
read to 0x4A ack data: 0x77 0x80 0x03 0x1D 0x18 0x07 0x90 0x00 0x00 0x08 0x00 0xF8 0xFF 0x03 0x1C 0x04 0x90 0x8E 0x01 0xDE 0xFC 0x13 0x00 0x09 0x1C 0x07 0x90 0x3F 0xF8 0xC8 0x01 0xE3
read to 0x4A ack data: 0x5B 0x80 0x03 0x1E 0x3D 0x3C 0x0E 0x44 0x32 0x13 0x18 0x07 0x90 0x00 0x00 0x14 0x26 0x04 0xD7 0x00 0x00 0xD0 0x03 0x00 0x0F 0x00 0x00 0x7F 0xA2 0x08 0x00 0x01
read to 0x4A ack data: 0x3F 0x80 0x03 0x1F 0x26 0x06 0xD7 0xAA 0xFD 0x00 0x00 0x33 0x09 0x19 0x26 0x07 0xD7 0x00 0x00 0x11 0x26 0x07 0xD7 0x44 0xBD 0x00 0x00 0x00 0x00 0x08 0x00 0x15
read to 0x4A ack data: 0x23 0x80 0x03 0x20 0x19 0x04 0xF5 0x02 0x00 0xFD 0xFF 0x01 0x00 0x0E 0x00 0x0F 0xAE 0x08 0x00 0x16 0x1E 0x04 0xF5 0x67 0xFE 0x1C 0x03 0xED 0xFF 0x00 0x00 0x0F
read to 0x4A ack data: 0x07 0x80 0x03 0x21 0xAE 0x08 0x00
read to 0x4A ack data: 0x15 0x00 0x02 0x0E
read to 0x4A ack data: 0x15 0x80 0x02 0x0F 0xFC 0x04 0x00 0x00 0x00 0x10 0x27 0x00 0x00 0x00 0x00 0x00 0x00 0x00 0x00 0x00 0x00
read to 0x4A ack data: 0xC7 0x00 0x03 0x22
read to 0x4A ack data: 0xC7 0x80 0x03 0
